<Qucs Dataset 0.0.15>
<indep x 10>
  +5.00000000000e+00
  +1.00000000000e+01
  +1.50000000000e+01
  +2.00000000000e+01
  +2.50000000000e+01
  +3.00000000000e+01
  +3.50000000000e+01
  +4.00000000000e+01
  +4.50000000000e+01
  +5.00000000000e+01
</indep>
<dep V1.I x>
  -1.28000000000e+00
  -9.60000000000e-01
  -7.68000000000e-01
  -6.40000000000e-01
  -5.48571428571e-01
  -4.80000000000e-01
  -4.26666666667e-01
  -3.84000000000e-01
  -3.49090909091e-01
  -3.20000000000e-01
</dep>
<dep izeja.V x>
  +6.40000000000e+00
  +9.60000000000e+00
  +1.15200000000e+01
  +1.28000000000e+01
  +1.37142857143e+01
  +1.44000000000e+01
  +1.49333333333e+01
  +1.53600000000e+01
  +1.57090909091e+01
  +1.60000000000e+01
</dep>
<dep _net0.V x>
  +1.92000000000e+01
  +1.92000000000e+01
  +1.92000000000e+01
  +1.92000000000e+01
  +1.92000000000e+01
  +1.92000000000e+01
  +1.92000000000e+01
  +1.92000000000e+01
  +1.92000000000e+01
  +1.92000000000e+01
</dep>
